Title: "RC Adder CIRC"
Date: Mon May  5 15:20:24  2025
Command: ngspice-44.2, Build Tue Feb 11 01:26:13 UTC 2025
Plotname: Transient Analysis
Flags: real
No. Variables: 3
No. Points: 773     
Variables:
	0	time	time
	1	i(vmeasin)	current
	2	v(vmeasin)	voltage
Values:
0		0.000000000000000e+00
	8.859817335492718e-04
	2.999999114018266e+00
1		1.000000000000000e-03
	8.859817335489387e-04
	2.999999114018266e+00
2		2.000000000000000e-03
	8.859817335485900e-04
	2.999999114018266e+00
3		4.000000000000000e-03
	8.859817335479100e-04
	2.999999114018266e+00
4		8.000000000000000e-03
	8.859817335477695e-04
	2.999999114018266e+00
5		1.600000000000000e-02
	8.859817335481277e-04
	2.999999114018266e+00
6		3.200000000000000e-02
	8.859817335482648e-04
	2.999999114018266e+00
7		6.400000000000000e-02
	8.859817335482249e-04
	2.999999114018266e+00
8		1.280000000000000e-01
	8.859817335483567e-04
	2.999999114018266e+00
9		2.280000000000000e-01
	8.859817335476498e-04
	2.999999114018266e+00
10		3.280000000000000e-01
	8.859817335490176e-04
	2.999999114018266e+00
11		4.280000000000000e-01
	8.859817335489508e-04
	2.999999114018266e+00
12		5.000000000000000e-01
	8.859817335493793e-04
	2.999999114018266e+00
13		5.100000000000000e-01
	8.859817320157528e-04
	2.999999114018268e+00
14		5.300000000000000e-01
	1.447931722965591e-03
	2.999998552068277e+00
15		5.700000000000001e-01
	1.150087913203436e-03
	2.999998849912087e+00
16		6.000000000000000e-01
	8.859816518584796e-04
	2.999999114018348e+00
17		6.080000000000000e-01
	8.859816518414290e-04
	2.999999114018348e+00
18		6.240000000000000e-01
	8.859816518399927e-04
	2.999999114018348e+00
19		6.560000000000000e-01
	8.859816518473366e-04
	2.999999114018348e+00
20		7.200000000000000e-01
	8.859816518541732e-04
	2.999999114018348e+00
21		8.200000000000000e-01
	8.859816518271132e-04
	2.999999114018348e+00
22		9.199999999999999e-01
	8.859816518218648e-04
	2.999999114018348e+00
23		1.000000000000000e+00
	8.859816518415930e-04
	2.999999114018348e+00
24		1.010000000000000e+00
	8.859816518227764e-04
	2.999999114018348e+00
25		1.030000000000000e+00
	2.426894071865143e-03
	2.999997573105928e+00
26		1.070000000000000e+00
	7.356856481257439e-04
	2.999999264314352e+00
27		1.100000000000000e+00
	3.577101138733940e-09
	2.999999999996423e+00
28		1.108000000000000e+00
	3.577098652007837e-09
	2.999999999996423e+00
29		1.124000000000000e+00
	3.577104924767927e-09
	2.999999999996423e+00
30		1.156000000000000e+00
	3.577098184499861e-09
	2.999999999996423e+00
31		1.220000000000000e+00
	3.577101887267120e-09
	2.999999999996423e+00
32		1.320000000000000e+00
	3.577102327019521e-09
	2.999999999996423e+00
33		1.420000000000000e+00
	3.577101025109553e-09
	2.999999999996423e+00
34		1.520000000000000e+00
	3.577099017167129e-09
	2.999999999996423e+00
35		1.620000000000001e+00
	3.577101041589426e-09
	2.999999999996423e+00
36		1.720000000000001e+00
	3.577100382394505e-09
	2.999999999996423e+00
37		1.820000000000001e+00
	3.577101034650532e-09
	2.999999999996423e+00
38		1.900000000000000e+00
	3.577099689372476e-09
	2.999999999996423e+00
39		1.910000000000000e+00
	3.577102358244544e-09
	2.999999999996423e+00
40		1.930000000000000e+00
	7.356856481336048e-04
	2.999999264314352e+00
41		1.935000000000000e+00
	2.250751863254487e-03
	2.999997749248137e+00
42		1.945000000000000e+00
	7.723582870351972e-03
	2.999992276417130e+00
43		1.965000000000000e+00
	4.703454845768147e-03
	2.999995296545154e+00
44		2.000000000000000e+00
	3.577087717178407e-09
	2.999999999996423e+00
45		2.004000000000000e+00
	3.576956047329771e-09
	2.999999999996423e+00
46		2.012000000000000e+00
	3.576889921405590e-09
	2.999999999996423e+00
47		2.028000000000000e+00
	3.576927549292508e-09
	2.999999999996423e+00
48		2.060000000000000e+00
	3.577047756088414e-09
	2.999999999996423e+00
49		2.124000000000000e+00
	3.576956324885527e-09
	2.999999999996423e+00
50		2.224000000000000e+00
	3.576952340225703e-09
	2.999999999996423e+00
51		2.324000000000000e+00
	3.577020036941991e-09
	2.999999999996423e+00
52		2.424000000000000e+00
	3.577091034837054e-09
	2.999999999996423e+00
53		2.524000000000000e+00
	3.576956380396679e-09
	2.999999999996423e+00
54		2.624000000000001e+00
	3.576959404019697e-09
	2.999999999996423e+00
55		2.724000000000001e+00
	3.577024656510608e-09
	2.999999999996423e+00
56		2.824000000000001e+00
	3.576956380396679e-09
	2.999999999996423e+00
57		2.924000000000001e+00
	3.576988406861492e-09
	2.999999999996423e+00
58		3.000000000000000e+00
	3.577052186572172e-09
	2.999999999996423e+00
59		3.010000000000000e+00
	3.577079834594932e-09
	2.999999999996423e+00
60		3.012500000000000e+00
	3.577096225129694e-09
	2.999999999996423e+00
61		3.017500000000000e+00
	3.576966372403900e-09
	2.999999999996423e+00
62		3.027499999999999e+00
	6.033884216905538e-04
	2.999999396611578e+00
63		3.047499999999999e+00
	1.383761678761229e-02
	2.999986162383212e+00
64		3.087499999999999e+00
	3.577102594166937e-09
	2.999999999996423e+00
65		3.100000000000000e+00
	3.576896577539568e-09
	2.999999999996423e+00
66		3.108000000000000e+00
	3.576939205766905e-09
	2.999999999996423e+00
67		3.124000000000000e+00
	3.577059086434797e-09
	2.999999999996423e+00
68		3.156000000000000e+00
	3.576896577539568e-09
	2.999999999996423e+00
69		3.220000000000000e+00
	3.576839453095504e-09
	2.999999999996423e+00
70		3.320000000000000e+00
	3.576927281277731e-09
	2.999999999996423e+00
71		3.420000000000000e+00
	3.577057053338883e-09
	2.999999999996423e+00
72		3.500000000000000e+00
	3.576896577539568e-09
	2.999999999996423e+00
73		3.510000000000000e+00
	3.572178793216640e-09
	2.999999999996428e+00
74		3.530000000000000e+00
	2.131734504189110e-04
	2.999999786826550e+00
75		3.570000000000000e+00
	4.390150132544662e-04
	2.999999560984987e+00
76		3.600000000000001e+00
	3.658627976965700e-09
	2.999999999996342e+00
77		3.608000000000001e+00
	3.658624859667614e-09
	2.999999999996342e+00
78		3.624000000000001e+00
	3.658623482297174e-09
	2.999999999996342e+00
79		3.656000000000001e+00
	3.658625831980122e-09
	2.999999999996342e+00
80		3.720000000000001e+00
	3.658623357397084e-09
	2.999999999996342e+00
81		3.820000000000001e+00
	3.658621301749765e-09
	2.999999999996342e+00
82		3.900000000000000e+00
	3.658625396564530e-09
	2.999999999996342e+00
83		3.910000000000000e+00
	3.658627141696347e-09
	2.999999999996342e+00
84		3.930000000000000e+00
	7.356857296274590e-04
	2.999999264314270e+00
85		3.935000000000000e+00
	2.250751944757808e-03
	2.999997749248055e+00
86		3.944999999999999e+00
	7.723582120607011e-03
	2.999992276417879e+00
87		3.964999999999999e+00
	4.703454928983516e-03
	2.999995296545071e+00
88		4.000000000000000e+00
	3.658607843765038e-09
	2.999999999996342e+00
89		4.004000000000000e+00
	3.658532660849589e-09
	2.999999999996342e+00
90		4.012000000000000e+00
	3.658496583805460e-09
	2.999999999996342e+00
91		4.028000000000000e+00
	3.658522434654699e-09
	2.999999999996342e+00
92		4.060000000000000e+00
	3.658590327394740e-09
	2.999999999996342e+00
93		4.124000000000000e+00
	3.658532496050859e-09
	2.999999999996342e+00
94		4.223999999999999e+00
	3.658529175790126e-09
	2.999999999996342e+00
95		4.323999999999999e+00
	3.658567476749752e-09
	2.999999999996342e+00
96		4.423999999999999e+00
	3.658608558471110e-09
	2.999999999996342e+00
97		4.523999999999998e+00
	3.658532496050859e-09
	2.999999999996342e+00
98		4.623999999999998e+00
	3.658533875156023e-09
	2.999999999996342e+00
99		4.723999999999998e+00
	3.658572939393978e-09
	2.999999999996342e+00
100		4.823999999999997e+00
	3.658532496050859e-09
	2.999999999996342e+00
101		4.923999999999997e+00
	3.658551918014896e-09
	2.999999999996342e+00
102		5.000000000000000e+00
	3.658590852148591e-09
	2.999999999996342e+00
103		5.010000000000000e+00
	3.658600508486820e-09
	2.999999999996342e+00
104		5.012500000000000e+00
	3.658615264044707e-09
	2.999999999996342e+00
105		5.017500000000000e+00
	3.658543487258803e-09
	2.999999999996342e+00
106		5.027500000000000e+00
	6.033865468843581e-04
	2.999999396613453e+00
107		5.047499999999999e+00
	1.383761685520661e-02
	2.999986162383145e+00
108		5.087499999999999e+00
	3.644283485649598e-09
	2.999999999996356e+00
109		5.100000000000000e+00
	3.644525930168920e-09
	2.999999999996355e+00
110		5.108000000000000e+00
	3.644320482964532e-09
	2.999999999996356e+00
111		5.124000000000000e+00
	3.644246962347854e-09
	2.999999999996356e+00
112		5.156000000000000e+00
	3.644332996826007e-09
	2.999999999996356e+00
113		5.220000000000000e+00
	3.644536252640963e-09
	2.999999999996355e+00
114		5.319999999999999e+00
	3.644320550618747e-09
	2.999999999996356e+00
115		5.419999999999999e+00
	3.644340048043256e-09
	2.999999999996356e+00
116		5.519999999999999e+00
	3.644462818760459e-09
	2.999999999996355e+00
117		5.619999999999998e+00
	3.644320537174641e-09
	2.999999999996356e+00
118		5.719999999999998e+00
	3.644374920321932e-09
	2.999999999996356e+00
119		5.819999999999998e+00
	3.644504223140384e-09
	2.999999999996355e+00
120		5.900000000000000e+00
	3.644320509852746e-09
	2.999999999996356e+00
121		5.910000000000000e+00
	3.644433206597044e-09
	2.999999999996355e+00
122		5.930000000000000e+00
	7.356857153452800e-04
	2.999999264314285e+00
123		5.935000000000000e+00
	2.250751930644924e-03
	2.999997749248069e+00
124		5.944999999999999e+00
	7.723582106319623e-03
	2.999992276417894e+00
125		5.964999999999999e+00
	4.703454914920830e-03
	2.999995296545085e+00
126		6.000000000000000e+00
	3.644542269963021e-09
	2.999999999996355e+00
127		6.004000000000000e+00
	3.644406280652930e-09
	2.999999999996356e+00
128		6.012000000000000e+00
	3.644338691055817e-09
	2.999999999996356e+00
129		6.028000000000000e+00
	3.644379339963667e-09
	2.999999999996356e+00
130		6.060000000000000e+00
	3.644497789484692e-09
	2.999999999996355e+00
131		6.124000000000000e+00
	3.644407610752155e-09
	2.999999999996356e+00
132		6.223999999999999e+00
	3.644407031788195e-09
	2.999999999996356e+00
133		6.323999999999999e+00
	3.644475484410238e-09
	2.999999999996355e+00
134		6.423999999999999e+00
	3.644539173481616e-09
	2.999999999996355e+00
135		6.523999999999998e+00
	3.644407610752155e-09
	2.999999999996356e+00
136		6.623999999999998e+00
	3.644409469074679e-09
	2.999999999996356e+00
137		6.723999999999998e+00
	3.644481398082568e-09
	2.999999999996355e+00
138		6.823999999999997e+00
	3.644407666696988e-09
	2.999999999996356e+00
139		6.923999999999997e+00
	3.644438711308314e-09
	2.999999999996355e+00
140		7.000000000000000e+00
	3.644506486087158e-09
	2.999999999996355e+00
141		7.010000000000000e+00
	3.644530940050318e-09
	2.999999999996355e+00
142		7.012500000000000e+00
	3.644548071312005e-09
	2.999999999996355e+00
143		7.017500000000000e+00
	3.644417771027554e-09
	2.999999999996356e+00
144		7.027500000000000e+00
	6.033884893254421e-04
	2.999999396611511e+00
145		7.047499999999999e+00
	1.383761688493335e-02
	2.999986162383115e+00
146		7.087499999999999e+00
	3.674023091826596e-09
	2.999999999996326e+00
147		7.100000000000000e+00
	3.674259774028212e-09
	2.999999999996326e+00
148		7.108000000000000e+00
	3.674052914325234e-09
	2.999999999996326e+00
149		7.124000000000000e+00
	3.673984127335241e-09
	2.999999999996326e+00
150		7.156000000000000e+00
	3.674067040612179e-09
	2.999999999996326e+00
151		7.220000000000000e+00
	3.674269334956650e-09
	2.999999999996326e+00
152		7.319999999999999e+00
	3.674053101675369e-09
	2.999999999996326e+00
153		7.419999999999999e+00
	3.674075183837856e-09
	2.999999999996326e+00
154		7.519999999999999e+00
	3.674198141905195e-09
	2.999999999996326e+00
155		7.619999999999998e+00
	3.674052795496676e-09
	2.999999999996326e+00
156		7.719999999999998e+00
	3.674109959839379e-09
	2.999999999996326e+00
157		7.819999999999998e+00
	3.674234870337991e-09
	2.999999999996326e+00
158		7.900000000000000e+00
	3.674052714832034e-09
	2.999999999996326e+00
159		7.910000000000000e+00
	3.674170117013760e-09
	2.999999999996326e+00
160		7.930000000000000e+00
	7.356857450854200e-04
	2.999999264314255e+00
161		7.935000000000000e+00
	2.250751960386631e-03
	2.999997749248040e+00
162		7.944999999999999e+00
	7.723582136048547e-03
	2.999992276417864e+00
163		7.964999999999999e+00
	4.703454945087795e-03
	2.999995296545055e+00
164		8.000000000000000e+00
	3.674273451021777e-09
	2.999999999996326e+00
165		8.004000000000000e+00
	3.674141407340232e-09
	2.999999999996326e+00
166		8.011999999999999e+00
	3.674079325923836e-09
	2.999999999996326e+00
167		8.027999999999999e+00
	3.674112583174956e-09
	2.999999999996326e+00
168		8.059999999999999e+00
	3.674232573130427e-09
	2.999999999996326e+00
169		8.123999999999999e+00
	3.674141687064393e-09
	2.999999999996326e+00
170		8.223999999999998e+00
	3.674137412272067e-09
	2.999999999996326e+00
171		8.323999999999998e+00
	3.674205986324753e-09
	2.999999999996326e+00
172		8.423999999999998e+00
	3.674273280151514e-09
	2.999999999996326e+00
173		8.523999999999997e+00
	3.674141742575544e-09
	2.999999999996326e+00
174		8.623999999999997e+00
	3.674143041883428e-09
	2.999999999996326e+00
175		8.723999999999997e+00
	3.674210920745681e-09
	2.999999999996326e+00
176		8.823999999999996e+00
	3.674141714819968e-09
	2.999999999996326e+00
177		8.923999999999996e+00
	3.674171608875949e-09
	2.999999999996326e+00
178		9.000000000000000e+00
	3.674238875814496e-09
	2.999999999996326e+00
179		9.010000000000000e+00
	3.674262386088085e-09
	2.999999999996326e+00
180		9.012499999999999e+00
	3.674281756010418e-09
	2.999999999996326e+00
181		9.017500000000000e+00
	3.674150404049860e-09
	2.999999999996326e+00
182		9.027500000000000e+00
	6.033885190995298e-04
	2.999999396611481e+00
183		9.047499999999999e+00
	1.383761687605648e-02
	2.999986162383124e+00
184		9.087499999999999e+00
	3.665143066648724e-09
	2.999999999996335e+00
185		9.100000000000000e+00
	3.665373432722163e-09
	2.999999999996334e+00
186		9.107999999999999e+00
	3.665179468519825e-09
	2.999999999996335e+00
187		9.123999999999999e+00
	3.665102612029902e-09
	2.999999999996335e+00
188		9.155999999999999e+00
	3.665188448749579e-09
	2.999999999996335e+00
189		9.219999999999999e+00
	3.665381303596255e-09
	2.999999999996334e+00
190		9.319999999999999e+00
	3.665179406069780e-09
	2.999999999996335e+00
191		9.419999999999998e+00
	3.665193351945484e-09
	2.999999999996335e+00
192		9.519999999999998e+00
	3.665318740360413e-09
	2.999999999996334e+00
193		9.619999999999997e+00
	3.665179470688229e-09
	2.999999999996335e+00
194		9.719999999999997e+00
	3.665231143330089e-09
	2.999999999996335e+00
195		9.819999999999997e+00
	3.665353102196706e-09
	2.999999999996334e+00
196		9.900000000000000e+00
	3.665179462448293e-09
	2.999999999996335e+00
197		9.910000000000000e+00
	3.665290346406558e-09
	2.999999999996334e+00
198		9.930000000000000e+00
	7.356857361961655e-04
	2.999999264314264e+00
199		9.935000000000000e+00
	2.250751951483913e-03
	2.999997749248049e+00
200		9.945000000000000e+00
	7.723582127166142e-03
	2.999992276417873e+00
201		9.965000000000000e+00
	4.703454937036203e-03
	2.999995296545063e+00
202		1.000000000000000e+01
	3.665385775279695e-09
	2.999999999996334e+00
203		1.000400000000000e+01
	3.665252336880476e-09
	2.999999999996335e+00
204		1.001200000000000e+01
	3.665186137230547e-09
	2.999999999996335e+00
205		1.002800000000000e+01
	3.665223596415607e-09
	2.999999999996335e+00
206		1.006000000000000e+01
	3.665343241161106e-09
	2.999999999996334e+00
207		1.012400000000000e+01
	3.665252656069595e-09
	2.999999999996335e+00
208		1.022400000000000e+01
	3.665247362127227e-09
	2.999999999996335e+00
209		1.032400000000000e+01
	3.665317618428005e-09
	2.999999999996334e+00
210		1.042400000000000e+01
	3.665383142836820e-09
	2.999999999996334e+00
211		1.052400000000000e+01
	3.665252656069595e-09
	2.999999999996335e+00
212		1.062400000000000e+01
	3.665253347790581e-09
	2.999999999996335e+00
213		1.072400000000000e+01
	3.665321037134295e-09
	2.999999999996334e+00
214		1.082400000000000e+01
	3.665252656069595e-09
	2.999999999996335e+00
215		1.092400000000000e+01
	3.665282645535367e-09
	2.999999999996335e+00
216		1.100000000000000e+01
	3.665346917907514e-09
	2.999999999996334e+00
217		1.101000000000000e+01
	3.665372436123526e-09
	2.999999999996334e+00
218		1.101250000000000e+01
	3.665393818325091e-09
	2.999999999996334e+00
219		1.101750000000000e+01
	3.665262043525686e-09
	2.999999999996335e+00
220		1.102750000000000e+01
	6.033885102954641e-04
	2.999999396611490e+00
221		1.104750000000000e+01
	1.383761682862590e-02
	2.999986162383171e+00
222		1.108750000000000e+01
	3.617709738540555e-09
	2.999999999996382e+00
223		1.110000000000000e+01
	3.617912551567344e-09
	2.999999999996382e+00
224		1.110800000000000e+01
	3.617720571888662e-09
	2.999999999996382e+00
225		1.112400000000000e+01
	3.617648929543828e-09
	2.999999999996382e+00
226		1.115600000000000e+01
	3.617725968179715e-09
	2.999999999996382e+00
227		1.122000000000000e+01
	3.617907427194196e-09
	2.999999999996382e+00
228		1.132000000000000e+01
	3.617720540229959e-09
	2.999999999996382e+00
229		1.142000000000000e+01
	3.617739466063082e-09
	2.999999999996382e+00
230		1.152000000000000e+01
	3.617851974156201e-09
	2.999999999996382e+00
231		1.162000000000000e+01
	3.617720611353621e-09
	2.999999999996382e+00
232		1.172000000000000e+01
	3.617765819548448e-09
	2.999999999996382e+00
233		1.182000000000000e+01
	3.617880519030999e-09
	2.999999999996382e+00
234		1.190000000000000e+01
	3.617720611353621e-09
	2.999999999996382e+00
235		1.191000000000000e+01
	3.617818480982689e-09
	2.999999999996382e+00
236		1.193000000000000e+01
	7.356856887499330e-04
	2.999999264314311e+00
237		1.193500000000000e+01
	2.250751904048605e-03
	2.999997749248096e+00
238		1.194500000000000e+01
	7.723582079724869e-03
	2.999992276417920e+00
239		1.196500000000000e+01
	4.703454889801587e-03
	2.999995296545110e+00
240		1.200000000000000e+01
	3.617913908988464e-09
	2.999999999996382e+00
241		1.200400000000000e+01
	3.617776337610564e-09
	2.999999999996382e+00
242		1.201200000000000e+01
	3.617711322343088e-09
	2.999999999996382e+00
243		1.202800000000000e+01
	3.617753726357416e-09
	2.999999999996382e+00
244		1.206000000000000e+01
	3.617870423374049e-09
	2.999999999996382e+00
245		1.212400000000000e+01
	3.617776664172258e-09
	2.999999999996382e+00
246		1.222400000000000e+01
	3.617778288740793e-09
	2.999999999996382e+00
247		1.232400000000000e+01
	3.617843256737054e-09
	2.999999999996382e+00
248		1.242400000000000e+01
	3.617909245184399e-09
	2.999999999996382e+00
249		1.252400000000000e+01
	3.617776664172258e-09
	2.999999999996382e+00
250		1.262400000000000e+01
	3.617782782108277e-09
	2.999999999996382e+00
251		1.272400000000000e+01
	3.617851144091018e-09
	2.999999999996382e+00
252		1.282400000000000e+01
	3.617778058889933e-09
	2.999999999996382e+00
253		1.292400000000000e+01
	3.617811181266302e-09
	2.999999999996382e+00
254		1.300000000000000e+01
	3.617878369274931e-09
	2.999999999996382e+00
255		1.301000000000000e+01
	3.617899154731620e-09
	2.999999999996382e+00
256		1.301250000000000e+01
	3.617920205601001e-09
	2.999999999996382e+00
257		1.301750000000000e+01
	3.617788716597288e-09
	2.999999999996382e+00
258		1.302750000000000e+01
	6.033884628580066e-04
	2.999999396611537e+00
259		1.304750000000000e+01
	1.383761685519881e-02
	2.999986162383145e+00
260		1.308750000000000e+01
	3.644304258539066e-09
	2.999999999996356e+00
261		1.310000000000000e+01
	3.644506371171252e-09
	2.999999999996355e+00
262		1.310800000000000e+01
	3.644311716115289e-09
	2.999999999996356e+00
263		1.312400000000000e+01
	3.644236823766023e-09
	2.999999999996356e+00
264		1.315600000000000e+01
	3.644311971987002e-09
	2.999999999996356e+00
265		1.322000000000000e+01
	3.644507762419480e-09
	2.999999999996355e+00
266		1.332000000000000e+01
	3.644311716115289e-09
	2.999999999996356e+00
267		1.342000000000000e+01
	3.644331873602080e-09
	2.999999999996356e+00
268		1.352000000000000e+01
	3.644447391440431e-09
	2.999999999996355e+00
269		1.362000000000000e+01
	3.644311768156994e-09
	2.999999999996356e+00
270		1.372000000000000e+01
	3.644360626643695e-09
	2.999999999996356e+00
271		1.382000000000000e+01
	3.644482238565616e-09
