Title: "LWC CIRC"
Date: Sat Apr  5 22:02:26  2025
Command: ngspice-44.2, Build Tue Feb 11 01:26:13 UTC 2025
Plotname: Transient Analysis
Flags: real
No. Variables: 3
No. Points: 4385    
Variables:
	0	time	time
	1	i(vmeasin)	current
	2	v(vmeasin)	voltage
Values:
0		0.000000000000000e+00
	1.632040956586108e-09
	2.999999999998368e+00
1		1.000000000000000e-04
	1.632041046791728e-09
	2.999999999998368e+00
2		2.000000000000000e-04
	1.632040437903788e-09
	2.999999999998368e+00
3		4.000000000000000e-04
	1.632041351669379e-09
	2.999999999998368e+00
4		8.000000000000000e-04
	1.632039235740419e-09
	2.999999999998368e+00
5		1.600000000000000e-03
	1.632040727602609e-09
	2.999999999998368e+00
6		3.200000000000000e-03
	1.632040560852315e-09
	2.999999999998368e+00
7		6.400000000000000e-03
	1.632039455182939e-09
	2.999999999998368e+00
8		1.280000000000000e-02
	1.632040692691299e-09
	2.999999999998368e+00
9		2.280000000000000e-02
	1.632040451131055e-09
	2.999999999998368e+00
10		3.280000000000000e-02
	1.632039700212630e-09
	2.999999999998368e+00
11		4.280000000000000e-02
	1.632040321460475e-09
	2.999999999998368e+00
12		5.280000000000001e-02
	1.632040261829355e-09
	2.999999999998368e+00
13		6.280000000000001e-02
	1.632040961790278e-09
	2.999999999998368e+00
14		7.280000000000000e-02
	1.632041411734180e-09
	2.999999999998368e+00
15		8.280000000000000e-02
	1.632039618897467e-09
	2.999999999998368e+00
16		9.279999999999999e-02
	1.632040317340507e-09
	2.999999999998368e+00
17		1.028000000000000e-01
	1.632040299125910e-09
	2.999999999998368e+00
18		1.128000000000000e-01
	1.632041370100816e-09
	2.999999999998368e+00
19		1.228000000000000e-01
	1.632040463707800e-09
	2.999999999998368e+00
20		1.328000000000000e-01
	1.632039621716393e-09
	2.999999999998368e+00
21		1.428000000000000e-01
	1.632040980872236e-09
	2.999999999998368e+00
22		1.528000000000000e-01
	1.632040504473802e-09
	2.999999999998368e+00
23		1.628000000000000e-01
	1.632040435952224e-09
	2.999999999998368e+00
24		1.728000000000000e-01
	1.632040322544677e-09
	2.999999999998368e+00
25		1.828000000000000e-01
	1.632040311268974e-09
	2.999999999998368e+00
26		1.928000000000000e-01
	1.632041396121668e-09
	2.999999999998368e+00
27		2.028000000000000e-01
	1.632039620632191e-09
	2.999999999998368e+00
28		2.128000000000000e-01
	1.632040260094632e-09
	2.999999999998368e+00
29		2.228000000000001e-01
	1.632040965259725e-09
	2.999999999998368e+00
30		2.328000000000001e-01
	1.632040561719676e-09
	2.999999999998368e+00
31		2.428000000000001e-01
	1.632040448095289e-09
	2.999999999998368e+00
32		2.528000000000001e-01
	1.632039599164988e-09
	2.999999999998368e+00
33		2.628000000000001e-01
	1.632040965259725e-09
	2.999999999998368e+00
34		2.728000000000001e-01
	1.632041394386945e-09
	2.999999999998368e+00
35		2.828000000000001e-01
	1.632039650122490e-09
	2.999999999998368e+00
36		2.928000000000001e-01
	1.632040317340507e-09
	2.999999999998368e+00
37		3.028000000000001e-01
	1.632040267900888e-09
	2.999999999998368e+00
38		3.128000000000001e-01
	1.632041342345241e-09
	2.999999999998368e+00
39		3.228000000000001e-01
	1.632040491463376e-09
	2.999999999998368e+00
40		3.328000000000002e-01
	1.632039621716393e-09
	2.999999999998368e+00
41		3.428000000000002e-01
	1.632040966994448e-09
	2.999999999998368e+00
42		3.528000000000002e-01
	1.632040535698824e-09
	2.999999999998368e+00
43		3.628000000000002e-01
	1.632040449830012e-09
	2.999999999998368e+00
44		3.728000000000002e-01
	1.632040332953018e-09
	2.999999999998368e+00
45		3.828000000000002e-01
	1.632040314738421e-09
	2.999999999998368e+00
46		3.928000000000002e-01
	1.632041364896646e-09
	2.999999999998368e+00
47		4.028000000000002e-01
	1.632039603284956e-09
	2.999999999998368e+00
48		4.128000000000002e-01
	1.632040294789101e-09
	2.999999999998368e+00
49		4.228000000000002e-01
	1.632040961790278e-09
	2.999999999998368e+00
50		4.328000000000002e-01
	1.632040533964101e-09
	2.999999999998368e+00
51		4.428000000000002e-01
	1.632040482789758e-09
	2.999999999998368e+00
52		4.528000000000003e-01
	1.632039619981669e-09
	2.999999999998368e+00
53		4.628000000000003e-01
	1.632040965259725e-09
	2.999999999998368e+00
54		4.728000000000003e-01
	1.632041397856392e-09
	2.999999999998368e+00
55		4.828000000000003e-01
	1.632039615428020e-09
	2.999999999998368e+00
56		4.928000000000003e-01
	1.632040293054378e-09
	2.999999999998368e+00
57		5.000000000000000e-01
	1.632040226701205e-09
	2.999999999998368e+00
58		5.010000000000000e-01
	1.631990043319449e-09
	2.999999999998368e+00
59		5.030000000000000e-01
	1.631887227126390e-09
	2.999999999998368e+00
60		5.070000000000000e-01
	1.631683432029273e-09
	2.999999999998368e+00
61		5.150000000000000e-01
	1.631276054772345e-09
	2.999999999998369e+00
62		5.250000000000000e-01
	1.847956923250295e-05
	2.999999981520431e+00
63		5.350000000000000e-01
	8.994197940185399e-04
	2.999999100580206e+00
64		5.450000000000000e-01
	2.758205670227040e-03
	2.999997241794330e+00
65		5.550000000000000e-01
	1.131996851479964e-03
	2.999998868003149e+00
66		5.650000000000001e-01
	3.627069951926960e-04
	2.999999637293005e+00
67		5.750000000000001e-01
	8.385009534266624e-06
	2.999999991614990e+00
68		5.850000000000001e-01
	1.603572244607473e-09
	2.999999999998396e+00
69		5.950000000000001e-01
	1.603524287309618e-09
	2.999999999998396e+00
70		6.000000000000000e-01
	1.603571113567767e-09
	2.999999999998396e+00
71		6.010000000000000e-01
	1.603526277904806e-09
	2.999999999998396e+00
72		6.030000000000000e-01
	1.603569347185587e-09
	2.999999999998396e+00
73		6.070000000000000e-01
	1.603526397167045e-09
	2.999999999998396e+00
74		6.150000000000000e-01
	1.603570886318991e-09
	2.999999999998396e+00
75		6.250000000000000e-01
	1.603526453979239e-09
	2.999999999998396e+00
76		6.350000000000000e-01
	1.603570914941929e-09
	2.999999999998396e+00
77		6.450000000000000e-01
	1.603526568470989e-09
	2.999999999998396e+00
78		6.550000000000000e-01
	1.603570887186353e-09
	2.999999999998396e+00
79		6.650000000000000e-01
	1.603526623982140e-09
	2.999999999998396e+00
80		6.750000000000000e-01
	1.603571053719807e-09
	2.999999999998396e+00
81		6.850000000000001e-01
	1.603526512959837e-09
	2.999999999998396e+00
82		6.950000000000001e-01
	1.603570887186353e-09
	2.999999999998396e+00
83		7.050000000000001e-01
	1.603526568470989e-09
	2.999999999998396e+00
84		7.150000000000001e-01
	1.603570803919626e-09
	2.999999999998396e+00
85		7.250000000000001e-01
	1.603526512959837e-09
	2.999999999998396e+00
86		7.350000000000001e-01
	1.603570748408475e-09
	2.999999999998396e+00
87		7.450000000000001e-01
	1.603526457448686e-09
	2.999999999998396e+00
88		7.550000000000001e-01
	1.603570970453080e-09
	2.999999999998396e+00
89		7.650000000000001e-01
	1.603526429693111e-09
	2.999999999998396e+00
90		7.750000000000001e-01
	1.603570970453080e-09
	2.999999999998396e+00
91		7.850000000000001e-01
	1.603526596226564e-09
	2.999999999998396e+00
92		7.950000000000002e-01
	1.603570970453080e-09
	2.999999999998396e+00
93		8.050000000000002e-01
	1.603526596226564e-09
	2.999999999998396e+00
94		8.150000000000002e-01
	1.603570970453080e-09
	2.999999999998396e+00
95		8.250000000000002e-01
	1.603526596226564e-09
	2.999999999998396e+00
96		8.350000000000002e-01
	1.603570970453080e-09
	2.999999999998396e+00
97		8.450000000000002e-01
	1.603526596226564e-09
	2.999999999998396e+00
98		8.550000000000002e-01
	1.603570970453080e-09
	2.999999999998396e+00
99		8.650000000000002e-01
	1.603526429693111e-09
	2.999999999998396e+00
100		8.750000000000002e-01
	1.603570970453080e-09
	2.999999999998396e+00
101		8.850000000000002e-01
	1.603526596226564e-09
	2.999999999998396e+00
102		8.950000000000002e-01
	1.603570970453080e-09
	2.999999999998396e+00
103		9.050000000000002e-01
	1.603526596226564e-09
	2.999999999998396e+00
104		9.150000000000003e-01
	1.603570970453080e-09
	2.999999999998396e+00
105		9.250000000000003e-01
	1.603526596226564e-09
	2.999999999998396e+00
106		9.350000000000003e-01
	1.603570970453080e-09
	2.999999999998396e+00
107		9.450000000000003e-01
	1.603526596226564e-09
	2.999999999998396e+00
108		9.550000000000003e-01
	1.603570970453080e-09
	2.999999999998396e+00
109		9.650000000000003e-01
	1.603526596226564e-09
	2.999999999998396e+00
110		9.750000000000003e-01
	1.603570970453080e-09
	2.999999999998396e+00
111		9.850000000000003e-01
	1.603526596226564e-09
	2.999999999998396e+00
112		9.950000000000003e-01
	1.603570970453080e-09
	2.999999999998396e+00
113		1.000000000000000e+00
	1.603526596226564e-09
	2.999999999998396e+00
114		1.001000000000000e+00
	1.603568805518182e-09
	2.999999999998396e+00
115		1.003000000000000e+00
	1.603525784375978e-09
	2.999999999998396e+00
116		1.007000000000000e+00
	1.603568999807211e-09
	2.999999999998396e+00
117		1.015000000000000e+00
	1.603525340286768e-09
	2.999999999998396e+00
118		1.025000000000000e+00
	6.344858269823272e-05
	2.999999936551417e+00
119		1.035000000000000e+00
	3.086670220191045e-03
	2.999996913329780e+00
120		1.036250000000000e+00
	3.778762091400575e-03
	2.999996221237909e+00
121		1.038750000000000e+00
	5.367174387788547e-03
	2.999994632825612e+00
122		1.043750000000000e+00
	9.318237331389836e-03
	2.999990681762668e+00
123		1.048962182748861e+00
	8.222790779799012e-03
	2.999991777209220e+00
124		1.054059593551037e+00
	5.513601138183421e-03
	2.999994486398862e+00
125		1.060097231637929e+00
	2.973948681220562e-03
	2.999997026051319e+00
126		1.065590417846120e+00
	1.331554230115321e-03
	2.999998668445770e+00
127		1.075590417846120e+00
	1.258941283909354e-05
	2.999999987410587e+00
128		1.085590417846120e+00
	1.599385457839500e-09
	2.999999999998401e+00
129		1.095590417846120e+00
	1.599387346086003e-09
	2.999999999998400e+00
130		1.100000000000000e+00
	1.599384969081160e-09
	2.999999999998401e+00
131		1.101000000000000e+00
	1.599388864836406e-09
	2.999999999998400e+00
132		1.103000000000000e+00
	1.599385728022681e-09
	2.999999999998401e+00
133		1.107000000000000e+00
	1.599387115367781e-09
	2.999999999998401e+00
134		1.115000000000000e+00
	1.599387842650598e-09
	2.999999999998400e+00
135		1.125000000000000e+00
	1.599387166108442e-09
	2.999999999998401e+00
136		1.135000000000000e+00
	1.599388704808166e-09
	2.999999999998400e+00
137		1.145000000000000e+00
	1.599386738065425e-09
	2.999999999998401e+00
138		1.155000000000000e+00
	1.599387733363019e-09
	2.999999999998400e+00
139		1.165000000000000e+00
	1.599387590248332e-09
	2.999999999998400e+00
140		1.175000000000000e+00
	1.599387430653772e-09
	2.999999999998400e+00
141		1.185000000000000e+00
	1.599387494838541e-09
	2.999999999998400e+00
142		1.195000000000000e+00
	1.599387186057762e-09
	2.999999999998401e+00
143		1.205000000000000e+00
	1.599387980127433e-09
	2.999999999998400e+00
144		1.215000000000000e+00
	1.599387881248195e-09
	2.999999999998400e+00
145		1.225000000000000e+00
	1.599387376877345e-09
	2.999999999998400e+00
146		1.235000000000000e+00
	1.599387132715015e-09
	2.999999999998401e+00
147		1.245000000000000e+00
	1.599388196967868e-09
	2.999999999998400e+00
148		1.255000000000000e+00
	1.599387765455403e-09
	2.999999999998400e+00
149		1.265000000000000e+00
	1.599387533436138e-09
	2.999999999998400e+00
150		1.275000000000000e+00
	1.599387130112930e-09
	2.999999999998401e+00
151		1.285000000000000e+00
	1.599388412940941e-09
	2.999999999998400e+00
152		1.295000000000000e+00
	1.599387523461478e-09
	2.999999999998400e+00
153		1.305000000000000e+00
	1.599387567263246e-09
	2.999999999998400e+00
154		1.315000000000000e+00
	1.599387108862568e-09
	2.999999999998401e+00
155		1.325000000000000e+00
	1.599388070766735e-09
	2.999999999998400e+00
156		1.335000000000000e+00
	1.599387730327253e-09
	2.999999999998400e+00
157		1.345000000000000e+00
	1.599387571600055e-09
	2.999999999998400e+00
158		1.355000000000000e+00
	1.599387090214290e-09
	2.999999999998401e+00
159		1.365000000000000e+00
	1.599388106762247e-09
	2.999999999998400e+00
160		1.375000000000000e+00
	1.599387691729656e-09
	2.999999999998400e+00
161		1.385000000000000e+00
	1.599387199935550e-09
	2.999999999998401e+00
162		1.395000000000000e+00
	1.599387522160436e-09
	2.999999999998400e+00
163		1.405000000000000e+00
	1.599386917609304e-09
	2.999999999998401e+00
164		1.415000000000000e+00
	1.599388011352456e-09
	2.999999999998400e+00
165		1.425000000000000e+00
	1.599387342182875e-09
	2.999999999998400e+00
166		1.435000000000000e+00
	1.599387335243981e-09
	2.999999999998400e+00
167		1.445000000000000e+00
	1.599387545579203e-09
	2.999999999998400e+00
168		1.455000000000000e+00
	1.599387541676075e-09
	2.999999999998400e+00
169		1.465000000000000e+00
	1.599387384249919e-09
	2.999999999998400e+00
170		1.475000000000000e+00
	1.599387354325940e-09
	2.999999999998400e+00
171		1.485000000000000e+00
	1.599387242002594e-09
	2.999999999998401e+00
172		1.495000000000000e+00
	1.599387996173626e-09
	2.999999999998400e+00
173		1.505000000000000e+00
	1.599387252844616e-09
	2.999999999998401e+00
174		1.515000000000000e+00
	1.599388186993208e-09
	2.999999999998400e+00
175		1.525000000000000e+00
	1.599387230726892e-09
	2.999999999998401e+00
176		1.535000000000000e+00
	1.599388697869272e-09
	2.999999999998400e+00
177		1.545000000000000e+00
	1.599386924114517e-09
	2.999999999998401e+00
178		1.555000000000000e+00
	1.599387355626982e-09
	2.999999999998400e+00
179		1.565000000000000e+00
	1.599387569865331e-09
	2.999999999998400e+00
180		1.575000000000000e+00
	1.599387478358668e-09
	2.999999999998400e+00
181		1.585000000000000e+00
	1.599387534303500e-09
	2.999999999998400e+00
182		1.595000000000000e+00
	1.599387363866919e-09
	2.999999999998400e+00
183		1.605000000000000e+00
	1.599386866001281e-09
	2.999999999998401e+00
184		1.615000000000000e+00
	1.599388674884186e-09
	2.999999999998400e+00
185		1.625000000000000e+00
	1.599387205573401e-09
	2.999999999998401e+00
186		1.635000000000000e+00
	1.599387706908486e-09
	2.999999999998400e+00
187		1.645000000000000e+00
	1.599386899828389e-09
	2.999999999998401e+00
188		1.655000000000000e+00
	1.599388348756172e-09
	2.999999999998400e+00
189		1.665000000000000e+00
	1.599387227257445e-09
	2.999999999998401e+00
190		1.675000000000000e+00
	1.599387680453953e-09
	2.999999999998400e+00
191		1.685000000000000e+00
	1.599387391622494e-09
	2.999999999998400e+00
192		1.695000000000001e+00
	1.599387495272222e-09
	2.999999999998400e+00
193		1.705000000000001e+00
	1.599387565962204e-09
	2.999999999998400e+00
194		1.715000000000001e+00
	1.599387364734280e-09
	2.999999999998400e+00
195		1.725000000000001e+00
	1.599387189527209e-09
	2.999999999998401e+00
196		1.735000000000001e+00
	1.599388671414739e-09
	2.999999999998400e+00
197		1.745000000000001e+00
	1.599386570664609e-09
	2.999999999998401e+00
198		1.755000000000001e+00
	1.599387672214016e-09
	2.999999999998400e+00
199		1.765000000000001e+00
	1.599387229425849e-09
	2.999999999998401e+00
200		1.775000000000001e+00
	1.599388844887086e-09
	2.999999999998400e+00
201		1.785000000000001e+00
	1.599386890721091e-09
	2.999999999998401e+00
202		1.795000000000001e+00
	1.599387340448152e-09
	2.999999999998400e+00
203		1.805000000000001e+00
	1.599387589380971e-09
	2.999999999998400e+00
204		1.815000000000001e+00
	1.599387481394434e-09
	2.999999999998400e+00
205		1.825000000000001e+00
	1.599387548614969e-09
	2.999999999998400e+00
206		1.835000000000001e+00
	1.599387357795386e-09
	2.999999999998400e+00
207		1.845000000000001e+00
	1.599387033402096e-09
	2.999999999998401e+00
208		1.855000000000001e+00
	1.599388685292526e-09
	2.999999999998400e+00
209		1.865000000000001e+00
	1.599387236798424e-09
	2.999999999998401e+00
210		1.875000000000001e+00
	1.599387693030698e-09
	2.999999999998400e+00
211		1.885000000000001e+00
	1.599386896358942e-09
	2.999999999998401e+00
212		1.895000000000001e+00
	1.599388189161612e-09
	2.999999999998400e+00
213		1.900000000000000e+00
	1.599387697801188e-09
	2.999999999998400e+00
214		1.901000000000000e+00
	1.599387955407624e-09
	2.999999999998400e+00
215		1.903000000000000e+00
	1.599386368135643e-09
	2.999999999998401e+00
216		1.907000000000000e+00
	1.599386814393258e-09
	2.999999999998401e+00
217		1.915000000000000e+00
	1.599387964948603e-09
	2.999999999998400e+00
218		1.925000000000000e+00
	3.018832310842454e-05
	2.999999969811677e+00
219		1.935000000000000e+00
	1.477061785595469e-03
	2.999998522938214e+00
220		1.945000000000000e+00
	5.068643428889970e-03
	2.999994931356571e+00
221		1.946250000000000e+00
	5.663994822604458e-03
	2.999994336005178e+00
222		1.948750000000000e+00
	6.947211231658474e-03
	2.999993052788768e+00
223		1.953750000000000e+00
	9.828575451925439e-03
	2.999990171424548e+00
224		1.959549360788037e+00
	6.600133250336612e-03
	2.999993399866750e+00
225		1.964890324347742e+00
	3.144643662739190e-03
	2.999996855356337e+00
226		1.970336483345750e+00
	9.126674541438365e-04
	2.999999087332546e+00
227		1.975679052892413e+00
	2.228909405613741e-05
	2.999999977710906e+00
228		1.985679052892413e+00
	1.599299137565654e-09
	2.999999999998401e+00
229		1.995679052892413e+00
	1.599256624697428e-09
	2.999999999998401e+00
230		2.000000000000000e+00
	1.599316671716868e-09
	2.999999999998401e+00
231		2.001000000000000e+00
	1.599361434955123e-09
	2.999999999998401e+00
232		2.003000000000000e+00
	1.599260441089075e-09
	2.999999999998401e+00
233		2.007000000000000e+00
	1.599220919751484e-09
	2.999999999998401e+00
234		2.015000000000000e+00
	1.599272722497604e-09
	2.999999999998401e+00
235		2.024999999999999e+00
	1.599364109031361e-09
	2.999999999998401e+00
236		2.034999999999999e+00
	1.599259678244427e-09
	2.999999999998401e+00
237		2.044999999999999e+00
	1.599273872185588e-09
	2.999999999998401e+00
238		2.054999999999999e+00
	1.599342759355862e-09
	2.999999999998401e+00
239		2.064999999999999e+00
	1.599259681713874e-09
	2.999999999998401e+00
240		2.074999999999998e+00
	1.599285094111754e-09
	2.999999999998401e+00
241		2.084999999999998e+00
	1.599353028918839e-09
	2.999999999998401e+00
242		2.094999999999998e+00
	1.599259709469449e-09
	2.999999999998401e+00
243		2.104999999999998e+00
	1.599280504033437e-09
	2.999999999998401e+00
244		2.114999999999998e+00
	1.599347190706981e-09
	2.999999999998401e+00
245		2.124999999999997e+00
	1.599259710336811e-09
	2.999999999998401e+00
246		2.134999999999997e+00
	1.599282882339322e-09
	2.999999999998401e+00
247		2.144999999999997e+00
	1.599349472735714e-09
	2.999999999998401e+00
248		2.154999999999997e+00
	1.599259681713874e-09
	2.999999999998401e+00
249		2.164999999999996e+00
	1.599282112122099e-09
	2.999999999998401e+00
250		2.174999999999996e+00
	1.599349150077147e-09
	2.999999999998401e+00
251		2.184999999999996e+00
	1.599259709469449e-09
	2.999999999998401e+00
252		2.194999999999996e+00
	1.599282415698707e-09
	2.999999999998401e+00
253		2.204999999999996e+00
	1.599350175298722e-09
	2.999999999998401e+00
254		2.214999999999995e+00
	1.599259709469449e-09
	2.999999999998401e+00
255		2.224999999999995e+00
	1.599282236154827e-09
	2.999999999998401e+00
256		2.234999999999995e+00
	1.599349918559647e-09
	2.999999999998401e+00
257		2.244999999999995e+00
	1.599259709469449e-09
	2.999999999998401e+00
258		2.254999999999995e+00
	1.599281959466433e-09
	2.999999999998401e+00
259		2.264999999999994e+00
	1.599349945447861e-09
	2.999999999998401e+00
260		2.274999999999994e+00
	1.599259709469449e-09
	2.999999999998401e+00
261		2.284999999999994e+00
	1.599282320288916e-09
	2.999999999998401e+00
262		2.294999999999994e+00
	1.599349979274969e-09
	2.999999999998401e+00
263		2.304999999999993e+00
	1.599259709469449e-09
	2.999999999998401e+00
264		2.314999999999993e+00
	1.599281944721284e-09
	2.999999999998401e+00
265		2.324999999999993e+00
	1.599349950652031e-09
	2.999999999998401e+00
266		2.334999999999993e+00
	1.599259709469449e-09
	2.999999999998401e+00
267		2.344999999999993e+00
	1.599282521516839e-09
	2.999999999998401e+00
268		2.354999999999992e+00
	1.599349842231814e-09
	2.999999999998401e+00
269		2.364999999999992e+00
	1.599259709469449e-09
	2.999999999998401e+00
270		2.374999999999992e+00
	1.599281779055192e-09
	2.999999999998401e+00
271		2.384999999999992e+00
	1.599349932437435e-09
