Title: "MCC Adder CIRC"
Date: Mon May  5 15:20:06  2025
Command: ngspice-44.2, Build Tue Feb 11 01:26:13 UTC 2025
Plotname: Transient Analysis
Flags: real
No. Variables: 3
No. Points: 773     
Variables:
	0	time	time
	1	i(vmeasin)	current
	2	v(vmeasin)	voltage
Values:
0		0.000000000000000e+00
	1.138009734052761e-04
	2.999999886199026e+00
1		1.000000000000000e-03
	1.138009734049431e-04
	2.999999886199026e+00
2		2.000000000000000e-03
	1.138009734023878e-04
	2.999999886199026e+00
3		4.000000000000000e-03
	1.138009734050701e-04
	2.999999886199026e+00
4		8.000000000000000e-03
	1.138009734010386e-04
	2.999999886199026e+00
5		1.600000000000000e-02
	1.138009734037331e-04
	2.999999886199026e+00
6		3.200000000000000e-02
	1.138009734053685e-04
	2.999999886199026e+00
7		6.400000000000000e-02
	1.138009734027512e-04
	2.999999886199026e+00
8		1.280000000000000e-01
	1.138009734050016e-04
	2.999999886199026e+00
9		2.280000000000000e-01
	1.138009734047019e-04
	2.999999886199026e+00
10		3.280000000000000e-01
	1.138009734052670e-04
	2.999999886199026e+00
11		4.280000000000000e-01
	1.138009734040501e-04
	2.999999886199026e+00
12		5.000000000000000e-01
	1.138009734052505e-04
	2.999999886199026e+00
13		5.100000000000000e-01
	1.138009698282399e-04
	2.999999886199030e+00
14		5.300000000000000e-01
	5.774006963550194e-04
	2.999999422599304e+00
15		5.700000000000001e-01
	3.371583283672951e-04
	2.999999662841672e+00
16		6.000000000000000e-01
	1.138008918810760e-04
	2.999999886199108e+00
17		6.080000000000000e-01
	1.138008918708376e-04
	2.999999886199108e+00
18		6.240000000000000e-01
	1.138008918657189e-04
	2.999999886199108e+00
19		6.560000000000000e-01
	1.138008918661040e-04
	2.999999886199108e+00
20		7.200000000000000e-01
	1.138008918782258e-04
	2.999999886199108e+00
21		8.200000000000000e-01
	1.138008918437725e-04
	2.999999886199108e+00
22		9.199999999999999e-01
	1.138008918440717e-04
	2.999999886199108e+00
23		1.000000000000000e+00
	1.138008918646508e-04
	2.999999886199108e+00
24		1.010000000000000e+00
	1.138008918741718e-04
	2.999999886199108e+00
25		1.030000000000000e+00
	1.655937006888720e-03
	2.999998344062993e+00
26		1.070000000000000e+00
	8.115104531892644e-04
	2.999999188489547e+00
27		1.100000000000000e+00
	7.582904617072818e-05
	2.999999924170954e+00
28		1.108000000000000e+00
	7.582904634753380e-05
	2.999999924170954e+00
29		1.124000000000000e+00
	7.582904615527613e-05
	2.999999924170954e+00
30		1.156000000000000e+00
	7.582904634747829e-05
	2.999999924170954e+00
31		1.220000000000000e+00
	7.582904615518376e-05
	2.999999924170954e+00
32		1.320000000000000e+00
	7.582904634714522e-05
	2.999999924170954e+00
33		1.420000000000000e+00
	7.582904615521281e-05
	2.999999924170954e+00
34		1.520000000000000e+00
	7.582904634747829e-05
	2.999999924170954e+00
35		1.620000000000001e+00
	7.582904615521368e-05
	2.999999924170954e+00
36		1.720000000000001e+00
	7.582904634753380e-05
	2.999999924170954e+00
37		1.820000000000001e+00
	7.582904615521368e-05
	2.999999924170954e+00
38		1.900000000000000e+00
	7.582904634714522e-05
	2.999999924170954e+00
39		1.910000000000000e+00
	7.582904614822361e-05
	2.999999924170954e+00
40		1.930000000000000e+00
	8.115104531899722e-04
	2.999999188489547e+00
41		1.935000000000000e+00
	2.326576031605976e-03
	2.999997673423969e+00
42		1.945000000000000e+00
	7.799404595582709e-03
	2.999992200595405e+00
43		1.965000000000000e+00
	4.779277612188822e-03
	2.999995220722388e+00
44		2.000000000000000e+00
	7.582904633747847e-05
	2.999999924170954e+00
45		2.004000000000000e+00
	7.582904620367665e-05
	2.999999924170954e+00
46		2.012000000000000e+00
	7.582904613659749e-05
	2.999999924170954e+00
47		2.028000000000000e+00
	7.582904617603123e-05
	2.999999924170954e+00
48		2.060000000000000e+00
	7.582904629874383e-05
	2.999999924170954e+00
49		2.124000000000000e+00
	7.582904620500892e-05
	2.999999924170954e+00
50		2.224000000000000e+00
	7.582904619787357e-05
	2.999999924170954e+00
51		2.324000000000000e+00
	7.582904627262193e-05
	2.999999924170954e+00
52		2.424000000000000e+00
	7.582904633976484e-05
	2.999999924170954e+00
53		2.524000000000000e+00
	7.582904620467585e-05
	2.999999924170954e+00
54		2.624000000000001e+00
	7.582904621134326e-05
	2.999999924170954e+00
55		2.724000000000001e+00
	7.582904627416280e-05
	2.999999924170954e+00
56		2.824000000000001e+00
	7.582904620467585e-05
	2.999999924170954e+00
57		2.924000000000001e+00
	7.582904623862352e-05
	2.999999924170954e+00
58		3.000000000000000e+00
	7.582904630274931e-05
	2.999999924170954e+00
59		3.010000000000000e+00
	7.582904632968089e-05
	2.999999924170954e+00
60		3.012500000000000e+00
	7.582904634586586e-05
	2.999999924170954e+00
61		3.017500000000000e+00
	7.582904621433479e-05
	2.999999924170954e+00
62		3.027499999999999e+00
	6.792130732619613e-04
	2.999999320786927e+00
63		3.047499999999999e+00
	1.391343786880416e-02
	2.999986086562131e+00
64		3.087499999999999e+00
	7.582904634357212e-05
	2.999999924170954e+00
65		3.100000000000000e+00
	7.582904614376754e-05
	2.999999924170954e+00
66		3.108000000000000e+00
	7.582904618085723e-05
	2.999999924170954e+00
67		3.124000000000000e+00
	7.582904630853678e-05
	2.999999924170954e+00
68		3.156000000000000e+00
	7.582904614343447e-05
	2.999999924170954e+00
69		3.220000000000000e+00
	7.582904607856362e-05
	2.999999924170954e+00
70		3.320000000000000e+00
	7.582904617106949e-05
	2.999999924170954e+00
71		3.420000000000000e+00
	7.582904630503828e-05
	2.999999924170954e+00
72		3.500000000000000e+00
	7.582904614343794e-05
	2.999999924170954e+00
73		3.510000000000000e+00
	7.582904142403599e-05
	2.999999924170959e+00
74		3.530000000000000e+00
	2.889987286766741e-04
	2.999999711001271e+00
75		3.570000000000000e+00
	5.148400949063722e-04
	2.999999485159905e+00
76		3.600000000000001e+00
	7.582912786556657e-05
	2.999999924170872e+00
77		3.608000000000001e+00
	7.582912786366445e-05
	2.999999924170872e+00
78		3.624000000000001e+00
	7.582912786182694e-05
	2.999999924170872e+00
79		3.656000000000001e+00
	7.582912785971188e-05
	2.999999924170872e+00
80		3.720000000000001e+00
	7.582912785926779e-05
	2.999999924170872e+00
81		3.820000000000001e+00
	7.582912785903447e-05
	2.999999924170872e+00
82		3.900000000000000e+00
	7.582912786231570e-05
	2.999999924170872e+00
83		3.910000000000000e+00
	7.582912786512248e-05
	2.999999924170872e+00
84		3.930000000000000e+00
	8.115105346976244e-04
	2.999999188489465e+00
85		3.935000000000000e+00
	2.326576113950019e-03
	2.999997673423886e+00
86		3.944999999999999e+00
	7.799404677080940e-03
	2.999992200595323e+00
87		3.964999999999999e+00
	4.779277695408463e-03
	2.999995220722305e+00
88		4.000000000000000e+00
	7.582912785124383e-05
	2.999999924170872e+00
89		4.004000000000000e+00
	7.582912777851425e-05
	2.999999924170872e+00
90		4.012000000000000e+00
	7.582912774139810e-05
	2.999999924170872e+00
91		4.028000000000000e+00
	7.582912776654422e-05
	2.999999924170872e+00
92		4.060000000000000e+00
	7.582912783500465e-05
	2.999999924170872e+00
93		4.124000000000000e+00
	7.582912778047015e-05
	2.999999924170872e+00
94		4.223999999999999e+00
	7.582912777470870e-05
	2.999999924170872e+00
95		4.323999999999999e+00
	7.582912781065433e-05
	2.999999924170872e+00
96		4.423999999999999e+00
	7.582912785202576e-05
	2.999999924170872e+00
97		4.523999999999998e+00
	7.582912777997055e-05
	2.999999924170872e+00
98		4.623999999999998e+00
	7.582912778354798e-05
	2.999999924170872e+00
99		4.723999999999998e+00
	7.582912782146557e-05
	2.999999924170872e+00
100		4.823999999999997e+00
	7.582912777997055e-05
	2.999999924170872e+00
101		4.923999999999997e+00
	7.582912779467623e-05
	2.999999924170872e+00
102		5.000000000000000e+00
	7.582912783495651e-05
	2.999999924170872e+00
103		5.010000000000000e+00
	7.582912784621833e-05
	2.999999924170872e+00
104		5.012500000000000e+00
	7.582912785830719e-05
	2.999999924170872e+00
105		5.017500000000000e+00
	7.582912778554942e-05
	2.999999924170872e+00
106		5.027500000000000e+00
	6.792111984881884e-04
	2.999999320788802e+00
107		5.047499999999999e+00
	1.414054971626977e-02
	2.999985859450284e+00
108		5.087499999999999e+00
	3.029540332994455e-04
	2.999999697045967e+00
109		5.100000000000000e+00
	3.029540333020254e-04
	2.999999697045967e+00
110		5.108000000000000e+00
	3.029540332966825e-04
	2.999999697045967e+00
111		5.124000000000000e+00
	3.029540333013107e-04
	2.999999697045967e+00
112		5.156000000000000e+00
	3.029540333010037e-04
	2.999999697045967e+00
113		5.220000000000000e+00
	3.029540333020042e-04
	2.999999697045967e+00
114		5.319999999999999e+00
	3.029540333035264e-04
	2.999999697045967e+00
115		5.419999999999999e+00
	3.029540333025515e-04
	2.999999697045967e+00
116		5.519999999999999e+00
	3.029540333037255e-04
	2.999999697045967e+00
117		5.619999999999998e+00
	3.029540333033104e-04
	2.999999697045967e+00
118		5.719999999999998e+00
	3.029540333035039e-04
	2.999999697045967e+00
119		5.819999999999998e+00
	3.029540333035056e-04
	2.999999697045967e+00
120		5.900000000000000e+00
	3.029540333033941e-04
	2.999999697045967e+00
121		5.910000000000000e+00
	3.029540333033438e-04
	2.999999697045967e+00
122		5.930000000000000e+00
	1.038633450885658e-03
	2.999998961366549e+00
123		5.935000000000000e+00
	2.553697125901572e-03
	2.999997446302874e+00
124		5.944999999999999e+00
	8.026521691337492e-03
	2.999991973478309e+00
125		5.964999999999999e+00
	5.006394506327211e-03
	2.999994993605493e+00
126		6.000000000000000e+00
	3.029540332888962e-04
	2.999999697045967e+00
127		6.004000000000000e+00
	3.029540332130385e-04
	2.999999697045967e+00
128		6.012000000000000e+00
	3.029540331757384e-04
	2.999999697045967e+00
129		6.028000000000000e+00
	3.029540331982395e-04
	2.999999697045967e+00
130		6.060000000000000e+00
	3.029540332694608e-04
	2.999999697045967e+00
131		6.124000000000000e+00
	3.029540332132098e-04
	2.999999697045967e+00
132		6.223999999999999e+00
	3.029540332074887e-04
	2.999999697045967e+00
133		6.323999999999999e+00
	3.029540332508086e-04
	2.999999697045967e+00
134		6.423999999999999e+00
	3.029540332876116e-04
	2.999999697045967e+00
135		6.523999999999998e+00
	3.029540332129045e-04
	2.999999697045967e+00
136		6.623999999999998e+00
	3.029540332161484e-04
	2.999999697045967e+00
137		6.723999999999998e+00
	3.029540332586647e-04
	2.999999697045967e+00
138		6.823999999999997e+00
	3.029540332129045e-04
	2.999999697045967e+00
139		6.923999999999997e+00
	3.029540332333039e-04
	2.999999697045967e+00
140		7.000000000000000e+00
	3.029540332694100e-04
	2.999999697045967e+00
141		7.010000000000000e+00
	3.029540332868176e-04
	2.999999697045967e+00
142		7.012500000000000e+00
	3.029540332925807e-04
	2.999999697045967e+00
143		7.017500000000000e+00
	3.029540332179837e-04
	2.999999697045967e+00
144		7.027500000000000e+00
	9.063336549402891e-04
	2.999999093666345e+00
145		7.047499999999999e+00
	1.410270672268835e-02
	2.999985897293277e+00
146		7.087499999999999e+00
	2.651088501714402e-04
	2.999999734891150e+00
147		7.100000000000000e+00
	2.651088503882433e-04
	2.999999734891150e+00
148		7.108000000000000e+00
	2.651088501967524e-04
	2.999999734891150e+00
149		7.124000000000000e+00
	2.651088501216493e-04
	2.999999734891150e+00
150		7.156000000000000e+00
	2.651088502053280e-04
	2.999999734891150e+00
151		7.220000000000000e+00
	2.651088503949585e-04
	2.999999734891150e+00
152		7.319999999999999e+00
	2.651088501967091e-04
	2.999999734891150e+00
153		7.419999999999999e+00
	2.651088502167095e-04
	2.999999734891150e+00
154		7.519999999999999e+00
	2.651088503341685e-04
	2.999999734891150e+00
155		7.619999999999998e+00
	2.651088501967516e-04
	2.999999734891150e+00
156		7.719999999999998e+00
	2.651088502454843e-04
	2.999999734891150e+00
157		7.819999999999998e+00
	2.651088503634325e-04
	2.999999734891150e+00
158		7.900000000000000e+00
	2.651088501967550e-04
	2.999999734891150e+00
159		7.910000000000000e+00
	2.651088503020345e-04
	2.999999734891150e+00
160		7.930000000000000e+00
	1.000788599232329e-03
	2.999998999211401e+00
161		7.935000000000000e+00
	2.515852591709236e-03
	2.999997484147408e+00
162		7.944999999999999e+00
	7.988677130304964e-03
	2.999992011322870e+00
163		7.964999999999999e+00
	4.968550672600719e-03
	2.999995031449327e+00
164		8.000000000000000e+00
	2.651088504034213e-04
	2.999999734891150e+00
165		8.004000000000000e+00
	2.651088502718738e-04
	2.999999734891150e+00
166		8.011999999999999e+00
	2.651088502052968e-04
	2.999999734891150e+00
167		8.027999999999999e+00
	2.651088502431918e-04
	2.999999734891150e+00
168		8.059999999999999e+00
	2.651088503660666e-04
	2.999999734891150e+00
169		8.123999999999999e+00
	2.651088502728591e-04
	2.999999734891150e+00
170		8.223999999999998e+00
	2.651088502689308e-04
	2.999999734891150e+00
171		8.323999999999998e+00
	2.651088503392166e-04
	2.999999734891150e+00
172		8.423999999999998e+00
	2.651088504061656e-04
	2.999999734891150e+00
173		8.523999999999997e+00
	2.651088502728730e-04
	2.999999734891150e+00
174		8.623999999999997e+00
	2.651088502786496e-04
	2.999999734891150e+00
175		8.723999999999997e+00
	2.651088503428092e-04
	2.999999734891150e+00
176		8.823999999999996e+00
	2.651088502729146e-04
	2.999999734891150e+00
177		8.923999999999996e+00
	2.651088503062907e-04
	2.999999734891150e+00
178		9.000000000000000e+00
	2.651088503680009e-04
	2.999999734891150e+00
179		9.010000000000000e+00
	2.651088503954841e-04
	2.999999734891150e+00
180		9.012499999999999e+00
	2.651088504142633e-04
	2.999999734891150e+00
181		9.017500000000000e+00
	2.651088502784657e-04
	2.999999734891150e+00
182		9.027500000000000e+00
	8.684908365538986e-04
	2.999999131509163e+00
183		9.047499999999999e+00
	1.387558651403525e-02
	2.999986124413486e+00
184		9.087499999999999e+00
	3.797550153828702e-05
	2.999999962024499e+00
185		9.100000000000000e+00
	3.797550154359397e-05
	2.999999962024499e+00
186		9.107999999999999e+00
	3.797550154099102e-05
	2.999999962024499e+00
187		9.123999999999999e+00
	3.797550153239893e-05
	2.999999962024499e+00
188		9.155999999999999e+00
	3.797550154255704e-05
	2.999999962024499e+00
189		9.219999999999999e+00
	3.797550153837505e-05
	2.999999962024499e+00
190		9.319999999999999e+00
	3.797550153894274e-05
	2.999999962024499e+00
191		9.419999999999998e+00
	3.797550153987689e-05
	2.999999962024499e+00
192		9.519999999999998e+00
	3.797550153886164e-05
	2.999999962024499e+00
193		9.619999999999997e+00
	3.797550153953298e-05
	2.999999962024499e+00
194		9.719999999999997e+00
	3.797550154117620e-05
	2.999999962024499e+00
195		9.819999999999997e+00
	3.797550153869988e-05
	2.999999962024499e+00
196		9.900000000000000e+00
	3.797550154033009e-05
	2.999999962024499e+00
197		9.910000000000000e+00
	3.797550154249546e-05
	2.999999962024499e+00
198		9.930000000000000e+00
	7.736572399216234e-04
	2.999999226342760e+00
199		9.935000000000000e+00
	2.288723136524114e-03
	2.999997711276864e+00
200		9.945000000000000e+00
	7.761553335746625e-03
	2.999992238446664e+00
201		9.965000000000000e+00
	4.741425419399502e-03
	2.999995258574581e+00
202		1.000000000000000e+01
	3.797550152780799e-05
	2.999999962024499e+00
203		1.000400000000000e+01
	3.797550145617778e-05
	2.999999962024499e+00
204		1.001200000000000e+01
	3.797550142234461e-05
	2.999999962024499e+00
205		1.002800000000000e+01
	3.797550144537479e-05
	2.999999962024499e+00
206		1.006000000000000e+01
	3.797550150645181e-05
	2.999999962024499e+00
207		1.012400000000000e+01
	3.797550145635820e-05
	2.999999962024499e+00
208		1.022400000000000e+01
	3.797550145005811e-05
	2.999999962024499e+00
209		1.032400000000000e+01
	3.797550148929669e-05
	2.999999962024499e+00
210		1.042400000000000e+01
	3.797550152662144e-05
	2.999999962024499e+00
211		1.052400000000000e+01
	3.797550145638595e-05
	2.999999962024499e+00
212		1.062400000000000e+01
	3.797550145856043e-05
	2.999999962024499e+00
213		1.072400000000000e+01
	3.797550149692210e-05
	2.999999962024499e+00
214		1.082400000000000e+01
	3.797550145638595e-05
	2.999999962024499e+00
215		1.092400000000000e+01
	3.797550147173435e-05
	2.999999962024499e+00
216		1.100000000000000e+01
	3.797550151053101e-05
	2.999999962024499e+00
217		1.101000000000000e+01
	3.797550152072945e-05
	2.999999962024499e+00
218		1.101250000000000e+01
	3.797550153549194e-05
	2.999999962024499e+00
219		1.101750000000000e+01
	3.797550146454609e-05
	2.999999962024499e+00
220		1.102750000000000e+01
	6.413579804314591e-04
	2.999999358642019e+00
221		1.104750000000000e+01
	1.383761677731680e-02
	2.999986162383223e+00
222		1.108750000000000e+01
	3.566445017349346e-09
	2.999999999996434e+00
223		1.110000000000000e+01
	3.566624309694205e-09
	2.999999999996434e+00
224		1.110800000000000e+01
	3.566450731094795e-09
	2.999999999996434e+00
225		1.112400000000000e+01
	3.566390053503371e-09
	2.999999999996434e+00
226		1.115600000000000e+01
	3.566457515164628e-09
	2.999999999996434e+00
227		1.122000000000000e+01
	3.566624435895338e-09
	2.999999999996434e+00
228		1.132000000000000e+01
	3.566450840382374e-09
	2.999999999996434e+00
229		1.142000000000000e+01
	3.566470909831948e-09
	2.999999999996434e+00
230		1.152000000000000e+01
	3.566570335941655e-09
	2.999999999996434e+00
231		1.162000000000000e+01
	3.566450219785050e-09
	2.999999999996434e+00
232		1.172000000000000e+01
	3.566493884943345e-09
	2.999999999996434e+00
233		1.182000000000000e+01
	3.566599187428826e-09
	2.999999999996434e+00
234		1.190000000000000e+01
	3.566450224121859e-09
	2.999999999996434e+00
235		1.191000000000000e+01
	3.566542887845775e-09
	2.999999999996434e+00
236		1.193000000000000e+01
	7.356856374912623e-04
	2.999999264314363e+00
237		1.193500000000000e+01
	2.250751852760950e-03
	2.999997749248147e+00
238		1.194500000000000e+01
	7.723582028475942e-03
	2.999992276417971e+00
239		1.196500000000000e+01
	4.703454838518520e-03
	2.999995296545162e+00
240		1.200000000000000e+01
	3.566635054137735e-09
	2.999999999996434e+00
241		1.200400000000000e+01
	3.566504465021825e-09
	2.999999999996434e+00
242		1.201200000000000e+01
	3.566437157750957e-09
	2.999999999996434e+00
243		1.202800000000000e+01
	3.566473761717343e-09
	2.999999999996434e+00
244		1.206000000000000e+01
	3.566598625378420e-09
	2.999999999996434e+00
245		1.212400000000000e+01
	3.566504798088732e-09
	2.999999999996434e+00
246		1.222400000000000e+01
	3.566501120474963e-09
	2.999999999996434e+00
247		1.232400000000000e+01
	3.566570803883312e-09
	2.999999999996434e+00
248		1.242400000000000e+01
	3.566637222108399e-09
	2.999999999996434e+00
249		1.252400000000000e+01
	3.566504798088732e-09
	2.999999999996434e+00
250		1.262400000000000e+01
	3.566505777773815e-09
	2.999999999996434e+00
251		1.272400000000000e+01
	3.566574469354017e-09
	2.999999999996434e+00
252		1.282400000000000e+01
	3.566504798088732e-09
	2.999999999996434e+00
253		1.292400000000000e+01
	3.566535827087547e-09
	2.999999999996434e+00
254		1.300000000000000e+01
	3.566600867942193e-09
	2.999999999996434e+00
255		1.301000000000000e+01
	3.566626501083636e-09
	2.999999999996434e+00
256		1.301250000000000e+01
	3.566644622005066e-09
	2.999999999996434e+00
257		1.301750000000000e+01
	3.566512277348999e-09
	2.999999999996434e+00
258		1.302750000000000e+01
	6.033884115758665e-04
	2.999999396611588e+00
259		1.304750000000000e+01
	1.383761681298396e-02
	2.999986162383187e+00
260		1.308750000000000e+01
	3.602089842982131e-09
	2.999999999996398e+00
261		1.310000000000000e+01
	3.602288625812605e-09
	2.999999999996398e+00
262		1.310800000000000e+01
	3.602105487585799e-09
	2.999999999996398e+00
263		1.312400000000000e+01
	3.602035020949801e-09
	2.999999999996398e+00
264		1.315600000000000e+01
	3.602107863723281e-09
	2.999999999996398e+00
265		1.322000000000000e+01
	3.602290576509154e-09
	2.999999999996398e+00
266		1.332000000000000e+01
	3.602105485417395e-09
	2.999999999996398e+00
267		1.342000000000000e+01
	3.602124062137418e-09
	2.999999999996398e+00
268		1.352000000000000e+01
	3.602237625376092e-09
	2.999999999996398e+00
269		1.362000000000000e+01
	3.602105847974602e-09
	2.999999999996398e+00
270		1.372000000000000e+01
	3.602154451890632e-09
	2.999999999996398e+00
271		1.382000000000000e+01
	3.602261888953351e-09
