Title: "NORM CIRC"
Date: Sat Apr  5 22:02:30  2025
Command: ngspice-44.2, Build Tue Feb 11 01:26:13 UTC 2025
Plotname: Transient Analysis
Flags: real
No. Variables: 3
No. Points: 4442    
Variables:
	0	time	time
	1	i(vmeasin)	current
	2	v(vmeasin)	voltage
Values:
0		0.000000000000000e+00
	1.237122787000221e-09
	2.999999999998763e+00
1		1.000000000000000e-04
	1.237122790903349e-09
	2.999999999998763e+00
2		2.000000000000000e-04
	1.237122796974881e-09
	2.999999999998763e+00
3		4.000000000000000e-04
	1.237124516953207e-09
	2.999999999998763e+00
4		8.000000000000000e-04
	1.237120818956438e-09
	2.999999999998763e+00
5		1.600000000000000e-03
	1.237124337843009e-09
	2.999999999998763e+00
6		3.200000000000000e-03
	1.237124566826507e-09
	2.999999999998763e+00
7		6.400000000000000e-03
	1.237122248368582e-09
	2.999999999998763e+00
8		1.280000000000000e-02
	1.237124324398902e-09
	2.999999999998763e+00
9		2.280000000000000e-02
	1.237122861593330e-09
	2.999999999998763e+00
10		3.280000000000000e-02
	1.237121355419672e-09
	2.999999999998763e+00
11		4.280000000000000e-02
	1.237122018517721e-09
	2.999999999998763e+00
12		5.280000000000001e-02
	1.237122700697728e-09
	2.999999999998763e+00
13		6.280000000000001e-02
	1.237122863328054e-09
	2.999999999998763e+00
14		7.280000000000000e-02
	1.237122535465317e-09
	2.999999999998763e+00
15		8.280000000000000e-02
	1.237121023653808e-09
	2.999999999998763e+00
16		9.279999999999999e-02
	1.237122701131409e-09
	2.999999999998763e+00
17		1.028000000000000e-01
	1.237122036732318e-09
	2.999999999998763e+00
18		1.128000000000000e-01
	1.237122522454891e-09
	2.999999999998763e+00
19		1.228000000000000e-01
	1.237122028058700e-09
	2.999999999998763e+00
20		1.328000000000000e-01
	1.237121701930687e-09
	2.999999999998763e+00
21		1.428000000000000e-01
	1.237122865930139e-09
	2.999999999998763e+00
22		1.528000000000000e-01
	1.237121694991793e-09
	2.999999999998763e+00
23		1.628000000000000e-01
	1.237122029793424e-09
	2.999999999998763e+00
24		1.728000000000000e-01
	1.237122702866132e-09
	2.999999999998763e+00
25		1.828000000000000e-01
	1.237122021119806e-09
	2.999999999998763e+00
26		1.928000000000000e-01
	1.237122543271573e-09
	2.999999999998763e+00
27		2.028000000000000e-01
	1.237121016714914e-09
	2.999999999998763e+00
28		2.128000000000000e-01
	1.237122701131409e-09
	2.999999999998763e+00
29		2.228000000000001e-01
	1.237122867664863e-09
	2.999999999998763e+00
30		2.328000000000001e-01
	1.237121686318176e-09
	2.999999999998763e+00
31		2.428000000000001e-01
	1.237122028058700e-09
	2.999999999998763e+00
32		2.528000000000001e-01
	1.237121703665410e-09
	2.999999999998763e+00
33		2.628000000000001e-01
	1.237122869399586e-09
	2.999999999998763e+00
34		2.728000000000001e-01
	1.237122520720167e-09
	2.999999999998763e+00
35		2.828000000000001e-01
	1.237121037531595e-09
	2.999999999998763e+00
36		2.928000000000001e-01
	1.237122702866132e-09
	2.999999999998763e+00
37		3.028000000000001e-01
	1.237122021119806e-09
	2.999999999998763e+00
38		3.128000000000001e-01
	1.237122527659061e-09
	2.999999999998763e+00
39		3.228000000000001e-01
	1.237122033262871e-09
	2.999999999998763e+00
40		3.328000000000002e-01
	1.237121694991793e-09
	2.999999999998763e+00
41		3.428000000000002e-01
	1.237122862460692e-09
	2.999999999998763e+00
42		3.528000000000002e-01
	1.237121696726516e-09
	2.999999999998763e+00
43		3.628000000000002e-01
	1.237122034997594e-09
	2.999999999998763e+00
44		3.728000000000002e-01
	1.237122695927239e-09
	2.999999999998763e+00
45		3.828000000000002e-01
	1.237122029793424e-09
	2.999999999998763e+00
46		3.928000000000002e-01
	1.237122534597955e-09
	2.999999999998763e+00
47		4.028000000000002e-01
	1.237121028857978e-09
	2.999999999998763e+00
48		4.128000000000002e-01
	1.237122706335579e-09
	2.999999999998763e+00
49		4.228000000000002e-01
	1.237122853787075e-09
	2.999999999998763e+00
50		4.328000000000002e-01
	1.237121696726516e-09
	2.999999999998763e+00
51		4.428000000000002e-01
	1.237122029793424e-09
	2.999999999998763e+00
52		4.528000000000003e-01
	1.237121694991793e-09
	2.999999999998763e+00
53		4.628000000000003e-01
	1.237122876338480e-09
	2.999999999998763e+00
54		4.728000000000003e-01
	1.237122522454891e-09
	2.999999999998763e+00
55		4.828000000000003e-01
	1.237121028857978e-09
	2.999999999998763e+00
56		4.928000000000003e-01
	1.237122708070303e-09
	2.999999999998763e+00
57		5.000000000000000e-01
	1.237121961705527e-09
	2.999999999998763e+00
58		5.010000000000000e-01
	1.236867517236561e-09
	2.999999999998763e+00
59		5.030000000000000e-01
	1.236353300962832e-09
	2.999999999998764e+00
60		5.070000000000000e-01
	1.235337514549516e-09
	2.999999999998765e+00
61		5.150000000000000e-01
	1.233304101181275e-09
	2.999999999998767e+00
62		5.250000000000000e-01
	1.078008971841332e-05
	2.999999989219910e+00
63		5.350000000000000e-01
	5.248388601903578e-04
	2.999999475161140e+00
64		5.450000000000000e-01
	1.721841126483574e-03
	2.999998278158873e+00
65		5.550000000000000e-01
	6.999403292220984e-04
	2.999999300059671e+00
66		5.650000000000001e-01
	2.186488457532718e-04
	2.999999781351154e+00
67		5.750000000000001e-01
	4.904914951853016e-06
	2.999999995095085e+00
68		5.850000000000001e-01
	1.155645789133186e-09
	2.999999999998844e+00
69		5.950000000000001e-01
	1.222830905978078e-09
	2.999999999998777e+00
70		6.000000000000000e-01
	1.197041481996314e-09
	2.999999999998803e+00
71		6.010000000000000e-01
	1.198483792676924e-09
	2.999999999998801e+00
72		6.030000000000000e-01
	1.200270640690226e-09
	2.999999999998800e+00
73		6.070000000000000e-01
	1.201002288939157e-09
	2.999999999998799e+00
74		6.150000000000000e-01
	1.200923581499286e-09
	2.999999999998799e+00
75		6.250000000000000e-01
	1.200965266904414e-09
	2.999999999998799e+00
76		6.350000000000000e-01
	1.200937604136504e-09
	2.999999999998799e+00
77		6.450000000000000e-01
	1.200958522299539e-09
	2.999999999998799e+00
78		6.550000000000000e-01
	1.200940864115596e-09
	2.999999999998799e+00
79		6.650000000000000e-01
	1.200957023498456e-09
	2.999999999998799e+00
80		6.750000000000000e-01
	1.200941488616047e-09
	2.999999999998799e+00
81		6.850000000000001e-01
	1.200956690431548e-09
	2.999999999998799e+00
82		6.950000000000001e-01
	1.200941877194106e-09
	2.999999999998799e+00
83		7.050000000000001e-01
	1.200956523898095e-09
	2.999999999998799e+00
84		7.150000000000001e-01
	1.200941904949682e-09
	2.999999999998799e+00
85		7.250000000000001e-01
	1.200956537775882e-09
	2.999999999998799e+00
86		7.350000000000001e-01
	1.200941821682955e-09
	2.999999999998799e+00
87		7.450000000000001e-01
	1.200956593287034e-09
	2.999999999998799e+00
88		7.550000000000001e-01
	1.200941835560743e-09
	2.999999999998799e+00
89		7.650000000000001e-01
	1.200956607164821e-09
	2.999999999998799e+00
90		7.750000000000001e-01
	1.200941835560743e-09
	2.999999999998799e+00
91		7.850000000000001e-01
	1.200956482264731e-09
	2.999999999998799e+00
92		7.950000000000002e-01
	1.200941821682955e-09
	2.999999999998799e+00
93		8.050000000000002e-01
	1.200956523898095e-09
	2.999999999998799e+00
94		8.150000000000002e-01
	1.200941821682955e-09
	2.999999999998799e+00
95		8.250000000000002e-01
	1.200956496142519e-09
	2.999999999998799e+00
96		8.350000000000002e-01
	1.200941821682955e-09
	2.999999999998799e+00
97		8.450000000000002e-01
	1.200956607164821e-09
	2.999999999998799e+00
98		8.550000000000002e-01
	1.200941835560743e-09
	2.999999999998799e+00
99		8.650000000000002e-01
	1.200956579409246e-09
	2.999999999998799e+00
100		8.750000000000002e-01
	1.200941835560743e-09
	2.999999999998799e+00
101		8.850000000000002e-01
	1.200956607164821e-09
	2.999999999998799e+00
102		8.950000000000002e-01
	1.200941835560743e-09
	2.999999999998799e+00
103		9.050000000000002e-01
	1.200956482264731e-09
	2.999999999998799e+00
104		9.150000000000003e-01
	1.200941821682955e-09
	2.999999999998799e+00
105		9.250000000000003e-01
	1.200956621042609e-09
	2.999999999998799e+00
106		9.350000000000003e-01
	1.200941835560743e-09
	2.999999999998799e+00
107		9.450000000000003e-01
	1.200956496142519e-09
	2.999999999998799e+00
108		9.550000000000003e-01
	1.200941918827469e-09
	2.999999999998799e+00
109		9.650000000000003e-01
	1.200956537775882e-09
	2.999999999998799e+00
110		9.750000000000003e-01
	1.200941904949682e-09
	2.999999999998799e+00
111		9.850000000000003e-01
	1.200956510020307e-09
	2.999999999998799e+00
112		9.950000000000003e-01
	1.200941904949682e-09
	2.999999999998799e+00
113		1.000000000000000e+00
	1.200956515224477e-09
	2.999999999998799e+00
114		1.001000000000000e+00
	1.200939464193751e-09
	2.999999999998799e+00
115		1.003000000000000e+00
	1.200955403266729e-09
	2.999999999998799e+00
116		1.007000000000000e+00
	1.200941043225795e-09
	2.999999999998799e+00
117		1.015000000000000e+00
	1.200954781368363e-09
	2.999999999998799e+00
118		1.025000000000000e+00
	6.042641195458907e-05
	2.999999939573588e+00
119		1.035000000000000e+00
	2.939687240844103e-03
	2.999997060312759e+00
120		1.036250000000000e+00
	3.598834029931761e-03
	2.999996401165970e+00
121		1.038750000000000e+00
	5.111598862681388e-03
	2.999994888401137e+00
122		1.043750000000000e+00
	8.874875334418594e-03
	2.999991125124665e+00
123		1.048439291922138e+00
	8.120424454695751e-03
	2.999991879575545e+00
124		1.052918083311636e+00
	5.788091460846531e-03
	2.999994211908539e+00
125		1.053829033774806e+00
	5.357534689007185e-03
	2.999994642465311e+00
126		1.054372257732786e+00
	5.108272857337877e-03
	2.999994891727143e+00
127		1.055031900900163e+00
	4.813205479713254e-03
	2.999995186794520e+00
128		1.056195816865501e+00
	4.313158641345052e-03
	2.999995686841359e+00
129		1.057364234559165e+00
	3.837907534012506e-03
	2.999996162092466e+00
130		1.058540874505917e+00
	3.386660388976575e-03
	2.999996613339611e+00
131		1.059732747188249e+00
	2.957786006166229e-03
	2.999997042213994e+00
132		1.061351451938586e+00
	2.421131664815072e-03
	2.999997578868335e+00
133		1.063545765570089e+00
	1.778496094078194e-03
	2.999998221503906e+00
134		1.066908255618122e+00
	9.846418865234506e-04
	2.999999015358113e+00
135		1.072731144790280e+00
	1.602823729612620e-04
	2.999999839717627e+00
136		1.082731144790280e+00
	1.242761497877165e-09
	2.999999999998757e+00
137		1.092731144790280e+00
	1.242806488797876e-09
	2.999999999998757e+00
138		1.100000000000000e+00
	1.242837793617724e-09
	2.999999999998757e+00
139		1.101000000000000e+00
	1.242831784969284e-09
	2.999999999998757e+00
140		1.102249008323318e+00
	1.242833259050558e-09
	2.999999999998757e+00
141		1.103098010625918e+00
	1.242838567738075e-09
	2.999999999998757e+00
142		1.103903821902288e+00
	1.242836393262198e-09
	2.999999999998757e+00
143		1.105515444455028e+00
	1.242834301619367e-09
	2.999999999998757e+00
144		1.108738689560509e+00
	1.242837862139301e-09
	2.999999999998757e+00
145		1.115185179771470e+00
	1.242838152705483e-09
	2.999999999998757e+00
146		1.125185179771470e+00
	1.242837462719221e-09
	2.999999999998757e+00
147		1.135185179771470e+00
	1.242838795420531e-09
	2.999999999998757e+00
148		1.145185179771470e+00
	1.242836180758572e-09
	2.999999999998757e+00
149		1.155185179771470e+00
	1.242836834315642e-09
	2.999999999998757e+00
150		1.165185179771470e+00
	1.242837461851859e-09
	2.999999999998757e+00
151		1.175185179771470e+00
	1.242836394996921e-09
	2.999999999998757e+00
152		1.185185179771470e+00
	1.242837013859521e-09
	2.999999999998757e+00
153		1.195185179771470e+00
	1.242835198905085e-09
	2.999999999998757e+00
154		1.205185179771470e+00
	1.242836872479558e-09
	2.999999999998757e+00
155		1.215185179771470e+00
	1.242836851662876e-09
	2.999999999998757e+00
156		1.225185179771470e+00
	1.242836779671852e-09
	2.999999999998757e+00
157		1.235185179771470e+00
	1.242836160809252e-09
	2.999999999998757e+00
158		1.245185179771470e+00
	1.242835885421900e-09
	2.999999999998757e+00
159		1.255185179771470e+00
	1.242836628750910e-09
	2.999999999998757e+00
160		1.265185179771470e+00
	1.242836491274074e-09
	2.999999999998757e+00
161		1.275185179771470e+00
	1.242837048553991e-09
	2.999999999998757e+00
162		1.285185179771470e+00
	1.242837332181279e-09
	2.999999999998757e+00
163		1.295185179771470e+00
	1.242837007787989e-09
	2.999999999998757e+00
164		1.305185179771470e+00
	1.242837140494335e-09
	2.999999999998757e+00
165		1.315185179771470e+00
	1.242837099294652e-09
	2.999999999998757e+00
166		1.325185179771470e+00
	1.242837788413553e-09
	2.999999999998757e+00
167		1.335185179771470e+00
	1.242837185597145e-09
	2.999999999998757e+00
168		1.345185179771470e+00
	1.242836902403538e-09
	2.999999999998757e+00
169		1.355185179771470e+00
	1.242837037278288e-09
	2.999999999998757e+00
170		1.365185179771470e+00
	1.242838603733587e-09
	2.999999999998757e+00
171		1.375185179771470e+00
	1.242837073273800e-09
	2.999999999998757e+00
172		1.385185179771470e+00
	1.242837310497236e-09
	2.999999999998757e+00
173		1.395185179771470e+00
	1.242836108333867e-09
	2.999999999998757e+00
174		1.405185179771470e+00
	1.242837095825206e-09
	2.999999999998757e+00
175		1.415185179771470e+00
	1.242836905005623e-09
	2.999999999998757e+00
176		1.425185179771470e+00
	1.242837653538803e-09
	2.999999999998757e+00
177		1.435185179771470e+00
	1.242837559430054e-09
	2.999999999998757e+00
178		1.445185179771470e+00
	1.242835986903223e-09
	2.999999999998757e+00
179		1.455185179771470e+00
	1.242836821738896e-09
	2.999999999998757e+00
180		1.465185179771470e+00
	1.242837676523889e-09
	2.999999999998757e+00
181		1.475185179771470e+00
	1.242837081513737e-09
	2.999999999998757e+00
182		1.485185179771470e+00
	1.242837036410926e-09
	2.999999999998757e+00
183		1.495185179771470e+00
	1.242836276602044e-09
	2.999999999998757e+00
184		1.505185179771470e+00
	1.242835129082465e-09
	2.999999999998757e+00
185		1.515185179771470e+00
	1.242836300888173e-09
	2.999999999998757e+00
186		1.525185179771470e+00
	1.242836906306666e-09
	2.999999999998757e+00
187		1.535185179771470e+00
	1.242836697272487e-09
	2.999999999998757e+00
188		1.545185179771470e+00
	1.242836985670265e-09
	2.999999999998757e+00
189		1.555185179771470e+00
	1.242836699874572e-09
	2.999999999998757e+00
190		1.565185179771470e+00
	1.242836450508072e-09
	2.999999999998757e+00
191		1.575185179771470e+00
	1.242837047252948e-09
	2.999999999998757e+00
192		1.585185179771470e+00
	1.242836920618134e-09
	2.999999999998757e+00
193		1.595185179771470e+00
	1.242837221158977e-09
	2.999999999998757e+00
194		1.605185179771470e+00
	1.242836406272624e-09
	2.999999999998757e+00
195		1.615185179771470e+00
	1.242836600561653e-09
	2.999999999998757e+00
196		1.625185179771470e+00
	1.242837335217045e-09
	2.999999999998757e+00
197		1.635185179771470e+00
	1.242837048987672e-09
	2.999999999998757e+00
198		1.645185179771470e+00
	1.242836932327518e-09
	2.999999999998757e+00
199		1.655185179771470e+00
	1.242836256652724e-09
	2.999999999998757e+00
200		1.665185179771470e+00
	1.242837468357072e-09
	2.999999999998757e+00
201		1.675185179771470e+00
	1.242836828677790e-09
	2.999999999998757e+00
202		1.685185179771470e+00
	1.242837431927879e-09
	2.999999999998757e+00
203		1.695185179771470e+00
	1.242836392394836e-09
	2.999999999998757e+00
204		1.705185179771470e+00
	1.242836549820991e-09
	2.999999999998757e+00
205		1.715185179771470e+00
	1.242836957914689e-09
	2.999999999998757e+00
206		1.725185179771470e+00
	1.242837183862422e-09
	2.999999999998757e+00
207		1.735185179771470e+00
	1.242834962549011e-09
	2.999999999998757e+00
208		1.745185179771470e+00
	1.242836262724256e-09
	2.999999999998757e+00
209		1.755185179771470e+00
	1.242837349962195e-09
	2.999999999998757e+00
210		1.765185179771470e+00
	1.242837022966820e-09
	2.999999999998757e+00
211		1.775185179771470e+00
	1.242835147730742e-09
	2.999999999998757e+00
212		1.785185179771470e+00
	1.242835683760296e-09
	2.999999999998757e+00
213		1.795185179771470e+00
	1.242836124813740e-09
	2.999999999998757e+00
214		1.805185179771470e+00
	1.242836513391798e-09
	2.999999999998757e+00
215		1.815185179771470e+00
	1.242836461783775e-09
	2.999999999998757e+00
216		1.825185179771470e+00
	1.242836038511247e-09
	2.999999999998757e+00
217		1.835185179771470e+00
	1.242837019497373e-09
	2.999999999998757e+00
218		1.845185179771470e+00
	1.242836879418452e-09
	2.999999999998757e+00
219		1.855185179771470e+00
	1.242837720759338e-09
	2.999999999998757e+00
220		1.865185179771470e+00
	1.242837650503037e-09
	2.999999999998757e+00
221		1.875185179771470e+00
	1.242835811262472e-09
	2.999999999998757e+00
222		1.885185179771470e+00
	1.242837719891976e-09
	2.999999999998757e+00
223		1.895185179771470e+00
	1.242837396799729e-09
	2.999999999998757e+00
224		1.900000000000000e+00
	1.242837904206345e-09
	2.999999999998757e+00
225		1.901000000000000e+00
	1.242838770267041e-09
	2.999999999998757e+00
226		1.903000000000000e+00
	1.242838003085583e-09
	2.999999999998757e+00
227		1.907000000000000e+00
	1.242837986172030e-09
	2.999999999998757e+00
228		1.913696542801971e+00
	1.242838153139164e-09
	2.999999999998757e+00
229		1.923696542801971e+00
	1.366624503586038e-06
	2.999999998633375e+00
230		1.933696542801971e+00
	1.110321939884644e-03
	2.999998889678060e+00
231		1.943696542801971e+00
	4.268251477865021e-03
	2.999995731748522e+00
232		1.953696542801971e+00
	9.330268645273148e-03
	2.999990669731355e+00
233		1.963696542801971e+00
	3.628468277130205e-03
	2.999996371531723e+00
234		1.973696542801971e+00
	1.917612138352363e-04
	2.999999808238786e+00
235		1.981735238972131e+00
	1.242754554646452e-09
	2.999999999998757e+00
236		1.989232544137679e+00
	1.242753635243010e-09
	2.999999999998757e+00
237		1.997575019163916e+00
	1.242796378395777e-09
	2.999999999998757e+00
238		2.000000000000000e+00
	1.242825559914090e-09
	2.999999999998757e+00
239		2.001000000000000e+00
	1.242837393763963e-09
	2.999999999998757e+00
240		2.003000000000000e+00
	1.242755213407692e-09
	2.999999999998757e+00
241		2.007000000000000e+00
	1.242713114704697e-09
	2.999999999998757e+00
242		2.015000000000000e+00
	1.242737491906343e-09
	2.999999999998757e+00
243		2.024999999999999e+00
	1.242804575397882e-09
	2.999999999998757e+00
244		2.034999999999999e+00
	1.242755111492688e-09
	2.999999999998757e+00
245		2.044999999999999e+00
	1.242773916762530e-09
	2.999999999998757e+00
246		2.054999999999999e+00
	1.242816522438461e-09
	2.999999999998757e+00
247		2.064999999999999e+00
	1.242755222514991e-09
	2.999999999998757e+00
248		2.074999999999998e+00
	1.242766441405391e-09
	2.999999999998757e+00
249		2.084999999999998e+00
	1.242809969086850e-09
	2.999999999998757e+00
250		2.094999999999998e+00
	1.242755139248264e-09
	2.999999999998757e+00
251		2.104999999999998e+00
	1.242769711359143e-09
	2.999999999998757e+00
252		2.114999999999998e+00
	1.242813485371336e-09
	2.999999999998757e+00
253		2.124999999999997e+00
	1.242755139248264e-09
	2.999999999998757e+00
254		2.134999999999997e+00
	1.242767745917445e-09
	2.999999999998757e+00
255		2.144999999999997e+00
	1.242811565032448e-09
	2.999999999998757e+00
256		2.154999999999997e+00
	1.242755139248264e-09
	2.999999999998757e+00
257		2.164999999999996e+00
	1.242768989714177e-09
	2.999999999998757e+00
258		2.174999999999996e+00
	1.242812055959192e-09
	2.999999999998757e+00
259		2.184999999999996e+00
	1.242755139248264e-09
	2.999999999998757e+00
260		2.194999999999996e+00
	1.242768273273381e-09
	2.999999999998757e+00
261		2.204999999999996e+00
	1.242811884221567e-09
	2.999999999998757e+00
262		2.214999999999995e+00
	1.242755139248264e-09
	2.999999999998757e+00
263		2.224999999999995e+00
	1.242768476236028e-09
	2.999999999998757e+00
264		2.234999999999995e+00
	1.242812541681765e-09
	2.999999999998757e+00
265		2.244999999999995e+00
	1.242755139248264e-09
	2.999999999998757e+00
266		2.254999999999995e+00
	1.242768356540108e-09
	2.999999999998757e+00
267		2.264999999999994e+00
	1.242811981366082e-09
	2.999999999998757e+00
268		2.274999999999994e+00
	1.242755139248264e-09
	2.999999999998757e+00
269		2.284999999999994e+00
	1.242768434602665e-09
	2.999999999998757e+00
270		2.294999999999994e+00
	1.242812416781675e-09
	2.999999999998757e+00
271		2.304999999999993e+00
	1.242755139248264e-09
